
T461C 000:497 SEGGER J-Link V4.96d Log File (0000ms, 0275ms total)
T461C 000:497 DLL Compiled: Jan 29 2015 11:45:37 (0000ms, 0275ms total)
T461C 000:497 Logging started @ 2019-03-03 00:04 (0001ms, 0276ms total)
T461C 000:498 JLINK_SetWarnOutHandler(...) (0000ms, 0276ms total)
T461C 000:498 JLINK_OpenEx(...)
Firmware: J-Link ARM V8 compiled Nov 28 2014 13:44:46
Hardware: V8.00
Feature(s): RDI,FlashDL,FlashBP,JFlash,GDB  returns O.K. (0275ms, 0551ms total)
T461C 000:773 JLINK_SetErrorOutHandler(...) (0000ms, 0551ms total)
T461C 000:773 JLINK_ExecCommand("ProjectFile = "C:\Users\mengj\Desktop\º®¼ÙÑµÁ·\Ð¥½ÐÒÖÖÆÌâ\USER\JLinkSettings.ini"", ...)  returns 0x00 (0001ms, 0552ms total)
T461C 000:787 JLINK_ExecCommand("Device = STM32F407ZG", ...)Device "STM32F407ZG" selected.  returns 0x00 (0018ms, 0570ms total)
T461C 000:805 JLINK_ExecCommand("DisableConnectionTimeout", ...)  returns 0x01 (0000ms, 0570ms total)
T461C 000:805 JLINK_GetHardwareVersion()  returns 0x13880 (0000ms, 0570ms total)
T461C 000:805 JLINK_GetDLLVersion()  returns 49604 (0000ms, 0570ms total)
T461C 000:805 JLINK_GetFirmwareString(...) (0000ms, 0570ms total)
T461C 000:864 JLINK_GetDLLVersion()  returns 49604 (0000ms, 0570ms total)
T461C 000:864 JLINK_GetCompileDateTime() (0000ms, 0570ms total)
T461C 000:876 JLINK_GetFirmwareString(...) (0000ms, 0571ms total)
T461C 000:883 JLINK_GetHardwareVersion()  returns 0x13880 (0000ms, 0571ms total)
T461C 000:899 JLINK_TIF_Select(JLINKARM_TIF_SWD)  returns 0x00 (0001ms, 0572ms total)
T461C 000:900 JLINK_SetSpeed(20000) (0001ms, 0573ms total)
T461C 000:901 JLINK_GetId() >0x108 TIF>Found SWD-DP with ID 0x2BA01477 >0x0D TIF> >0x28 TIF> >0x0D TIF> >0x28 TIF> >0x0D TIF> >0x21 TIF> >0x0D TIF> >0x28 TIF> >0x0D TIF> >0x28 TIF> >0x0D TIF> >0x28 TIF> >0x0D TIF> >0x21 TIF> >0x0D TIF> >0x21 TIF> >0x0D TIF> >0x28 TIF> >0x0D TIF> >0x21 TIF> >0x0D TIF> >0x21 TIF> >0x0D TIF> >0x28 TIF> >0x0D TIF> >0x21 TIF> >0x0D TIF> >0x21 TIF> >0x108 TIF>Found SWD-DP with ID 0x2BA01477 >0x0D TIF> >0x21 TIF> >0x0D TIF> >0x28 TIF> >0x0D TIF> >0x28 TIF> >0x0D TIF> >0x21 TIF>
 >0x0D TIF> >0x28 TIF> >0x0D TIF> >0x21 TIF> >0x0D TIF> >0x21 TIF> >0x0D TIF> >0x21 TIF> >0x0D TIF> >0x21 TIF> >0x0D TIF> >0x28 TIF> >0x0D TIF> >0x28 TIF> >0x0D TIF> >0x21 TIF> >0x0D TIF> >0x28 TIF> >0x0D TIF> >0x28 TIF> >0x0D TIF> >0x28 TIF> >0x0D TIF> >0x21 TIF> >0x0D TIF> >0x21 TIF> >0x0D TIF> >0x28 TIF> >0x0D TIF> >0x21 TIF> >0x0D TIF> >0x21 TIF>Found Cortex-M4 r0p1, Little endian. -- CPU_WriteMem(4 bytes @ 0xE0002000) -- CPU_ReadMem(4 bytes @ 0xE000EDF0) -- CPU_ReadMem(4 bytes @ 0xE0002000)
FPUnit: 6 code (BP) slots and 2 literal slots -- CPU_ReadMem(4 bytes @ 0xE000EDFC) -- CPU_ReadMem(4 bytes @ 0xE0001000) -- CPU_WriteMem(4 bytes @ 0xE0001000) -- CPU_ReadMem(4 bytes @ 0xE000ED88) -- CPU_WriteMem(4 bytes @ 0xE000ED88) -- CPU_ReadMem(4 bytes @ 0xE000ED88) -- CPU_WriteMem(4 bytes @ 0xE000ED88) -- CPU_ReadMem(4 bytes @ 0xE00FF010)TPIU fitted. -- CPU_ReadMem(4 bytes @ 0xE00FF014)ETM fitted. -- CPU_ReadMem(4 bytes @ 0xE00FF018) >0x0D TIF> >0x21 TIF>  returns 0x2BA01477 (0079ms, 0652ms total)
T461C 000:980 JLINK_GetDLLVersion()  returns 49604 (0000ms, 0652ms total)
T461C 000:980 JLINK_CORE_GetFound()  returns 0xE0000FF (0000ms, 0652ms total)
T461C 000:980 JLINK_GetDebugInfo(0x100) -- Value=0xE00FF003  returns 0x00 (0000ms, 0652ms total)
T461C 000:985 JLINK_ReadMem (0xE00FF000, 0x0020 Bytes, ...) -- CPU is running -- CPU_ReadMem(32 bytes @ 0xE00FF000) - Data: 03 F0 F0 FF 03 20 F0 FF 03 30 F0 FF 03 10 F0 FF ...  returns 0x00 (0001ms, 0653ms total)
T461C 000:986 JLINK_ReadMem (0xE000EFF0, 0x0010 Bytes, ...) -- CPU is running -- CPU_ReadMem(16 bytes @ 0xE000EFF0) - Data: 0D 00 00 00 E0 00 00 00 05 00 00 00 B1 00 00 00  returns 0x00 (0001ms, 0654ms total)
T461C 000:987 JLINK_ReadMem (0xE000EFD0, 0x0020 Bytes, ...) -- CPU is running -- CPU_ReadMem(32 bytes @ 0xE000EFD0) - Data: 04 00 00 00 00 00 00 00 00 00 00 00 00 00 00 00 ...  returns 0x00 (0001ms, 0655ms total)
T461C 000:988 JLINK_ReadMem (0xE0001FF0, 0x0010 Bytes, ...) -- CPU is running -- CPU_ReadMem(16 bytes @ 0xE0001FF0) - Data: 0D 00 00 00 E0 00 00 00 05 00 00 00 B1 00 00 00  returns 0x00 (0000ms, 0655ms total)
T461C 000:988 JLINK_ReadMem (0xE0001FD0, 0x0020 Bytes, ...) -- CPU is running -- CPU_ReadMem(32 bytes @ 0xE0001FD0) - Data: 04 00 00 00 00 00 00 00 00 00 00 00 00 00 00 00 ...  returns 0x00 (0001ms, 0656ms total)
T461C 000:989 JLINK_ReadMem (0xE0002FF0, 0x0010 Bytes, ...) -- CPU is running -- CPU_ReadMem(16 bytes @ 0xE0002FF0) - Data: 0D 00 00 00 E0 00 00 00 05 00 00 00 B1 00 00 00  returns 0x00 (0001ms, 0657ms total)
T461C 000:990 JLINK_ReadMem (0xE0002FD0, 0x0020 Bytes, ...) -- CPU is running -- CPU_ReadMem(32 bytes @ 0xE0002FD0) - Data: 04 00 00 00 00 00 00 00 00 00 00 00 00 00 00 00 ...  returns 0x00 (0001ms, 0658ms total)
T461C 000:991 JLINK_ReadMem (0xE0000FF0, 0x0010 Bytes, ...) -- CPU is running -- CPU_ReadMem(16 bytes @ 0xE0000FF0) - Data: 0D 00 00 00 E0 00 00 00 05 00 00 00 B1 00 00 00  returns 0x00 (0001ms, 0659ms total)
T461C 000:992 JLINK_ReadMem (0xE0000FD0, 0x0020 Bytes, ...) -- CPU is running -- CPU_ReadMem(32 bytes @ 0xE0000FD0) - Data: 04 00 00 00 00 00 00 00 00 00 00 00 00 00 00 00 ...  returns 0x00 (0001ms, 0660ms total)
T461C 000:993 JLINK_ReadMem (0xE0040FF0, 0x0010 Bytes, ...) -- CPU is running -- CPU_ReadMem(16 bytes @ 0xE0040FF0) - Data: 0D 00 00 00 90 00 00 00 05 00 00 00 B1 00 00 00  returns 0x00 (0001ms, 0661ms total)
T461C 000:994 JLINK_ReadMem (0xE0040FD0, 0x0020 Bytes, ...) -- CPU is running -- CPU_ReadMem(32 bytes @ 0xE0040FD0) - Data: 04 00 00 00 00 00 00 00 00 00 00 00 00 00 00 00 ...  returns 0x00 (0000ms, 0661ms total)
T461C 000:994 JLINK_ReadMem (0xE0041FF0, 0x0010 Bytes, ...) -- CPU is running -- CPU_ReadMem(16 bytes @ 0xE0041FF0) - Data: 0D 00 00 00 90 00 00 00 05 00 00 00 B1 00 00 00  returns 0x00 (0001ms, 0662ms total)
T461C 000:995 JLINK_ReadMem (0xE0041FD0, 0x0020 Bytes, ...) -- CPU is running -- CPU_ReadMem(32 bytes @ 0xE0041FD0) - Data: 04 00 00 00 00 00 00 00 00 00 00 00 00 00 00 00 ...  returns 0x00 (0001ms, 0663ms total)
T461C 000:996 JLINK_ReadMemU32(0xE000EF40, 0x0001 Items, ...) -- CPU is running -- CPU_ReadMem(4 bytes @ 0xE000EF40) - Data: 21 00 11 10  returns 0x01 (0001ms, 0664ms total)
T461C 000:997 JLINK_ReadMemU32(0xE000EF44, 0x0001 Items, ...) -- CPU is running -- CPU_ReadMem(4 bytes @ 0xE000EF44) - Data: 11 00 00 11  returns 0x01 (0001ms, 0665ms total)
T461C 000:998 JLINK_ReadMemU32(0xE000ED00, 0x0001 Items, ...) -- CPU is running -- CPU_ReadMem(4 bytes @ 0xE000ED00) - Data: 41 C2 0F 41  returns 0x01 (0000ms, 0665ms total)
T461C 000:998 JLINK_SetResetType(JLINKARM_RESET_TYPE_NORMAL)  returns JLINKARM_RESET_TYPE_NORMAL (0000ms, 0665ms total)
T461C 000:998 JLINK_Reset() -- CPU is running -- CPU_WriteMem(4 bytes @ 0xE000EDF0) -- CPU is running -- CPU_WriteMem(4 bytes @ 0xE000EDFC) >0x35 TIF> -- CPU is running -- CPU_WriteMem(4 bytes @ 0xE000ED0C) -- CPU is running -- CPU_ReadMem(4 bytes @ 0xE000EDF0) -- CPU is running -- CPU_ReadMem(4 bytes @ 0xE000EDF0) -- CPU is running -- CPU_WriteMem(4 bytes @ 0xE000EDF0) -- CPU is running -- CPU_WriteMem(4 bytes @ 0xE000EDFC) -- CPU is running -- CPU_ReadMem(4 bytes @ 0xE000EDF0)
 -- CPU_WriteMem(4 bytes @ 0xE0002000) -- CPU_ReadMem(4 bytes @ 0xE000EDFC) -- CPU_ReadMem(4 bytes @ 0xE0001000) (0020ms, 0685ms total)
T461C 001:018 JLINK_Halt()  returns 0x00 (0001ms, 0686ms total)
T461C 001:019 JLINK_IsHalted()  returns TRUE (0000ms, 0686ms total)
T461C 001:019 JLINK_ReadMemU32(0xE000EDF0, 0x0001 Items, ...) -- CPU_ReadMem(4 bytes @ 0xE000EDF0) - Data: 03 00 03 00  returns 0x01 (0000ms, 0686ms total)
T461C 001:019 JLINK_WriteU32(0xE000EDF0, 0xA05F0003) -- CPU_WriteMem(4 bytes @ 0xE000EDF0)  returns 0x00 (0001ms, 0687ms total)
T461C 001:020 JLINK_WriteU32(0xE000EDFC, 0x01000000) -- CPU_WriteMem(4 bytes @ 0xE000EDFC)  returns 0x00 (0001ms, 0688ms total)
T461C 001:059 JLINK_GetHWStatus(...)  returns 0x00 (0000ms, 0688ms total)
T461C 001:079 JLINK_GetNumBPUnits(Type = 0xFFFFFF00)  returns 0x06 (0000ms, 0688ms total)
T461C 001:079 JLINK_GetNumBPUnits(Type = 0xF0)  returns 0x2000 (0000ms, 0688ms total)
T461C 001:079 JLINK_GetNumWPUnits()  returns 0x04 (0000ms, 0688ms total)
T461C 001:093 JLINK_GetSpeed()  returns 0xFA0 (0000ms, 0688ms total)
T461C 001:102 JLINK_ReadMemU32(0xE000E004, 0x0001 Items, ...) -- CPU_ReadMem(4 bytes @ 0xE000E004) - Data: 02 00 00 00  returns 0x01 (0001ms, 0689ms total)
T461C 001:103 JLINK_ReadMemU32(0xE000E004, 0x0001 Items, ...) -- CPU_ReadMem(4 bytes @ 0xE000E004) - Data: 02 00 00 00  returns 0x01 (0001ms, 0690ms total)
T461C 001:104 JLINK_WriteMem(0xE0001000, 0x001C Bytes, ...) - Data: 01 00 00 00 00 00 00 00 00 00 00 00 00 00 00 00 ... -- CPU_WriteMem(28 bytes @ 0xE0001000)  returns 0x1C (0001ms, 0691ms total)
T461C 001:105 JLINK_ReadMem (0xE0001000, 0x001C Bytes, ...) -- CPU_ReadMem(28 bytes @ 0xE0001000) - Data: 01 00 00 40 00 00 00 00 00 00 00 00 00 00 00 00 ...  returns 0x00 (0001ms, 0692ms total)
T461C 001:106 JLINK_Halt()  returns 0x00 (0000ms, 0692ms total)
T461C 001:106 JLINK_IsHalted()  returns TRUE (0000ms, 0692ms total)
T461C 001:112 JLINK_WriteMem(0x20000000, 0x0180 Bytes, ...) - Data: 00 BE 0A E0 0D 78 2D 06 68 40 08 24 40 00 00 D3 ... -- CPU_WriteMem(384 bytes @ 0x20000000)  returns 0x180 (0004ms, 0696ms total)
T461C 001:116 JLINK_WriteReg(R0, 0x08000000)  returns 0x00 (0000ms, 0696ms total)
T461C 001:116 JLINK_WriteReg(R1, 0x007A1200)  returns 0x00 (0000ms, 0696ms total)
T461C 001:116 JLINK_WriteReg(R2, 0x00000001)  returns 0x00 (0000ms, 0696ms total)
T461C 001:116 JLINK_WriteReg(R3, 0x00000000)  returns 0x00 (0000ms, 0696ms total)
T461C 001:116 JLINK_WriteReg(R4, 0x00000000)  returns 0x00 (0000ms, 0696ms total)
T461C 001:116 JLINK_WriteReg(R5, 0x00000000)  returns 0x00 (0000ms, 0696ms total)
T461C 001:116 JLINK_WriteReg(R6, 0x00000000)  returns 0x00 (0000ms, 0696ms total)
T461C 001:116 JLINK_WriteReg(R7, 0x00000000)  returns 0x00 (0000ms, 0696ms total)
T461C 001:116 JLINK_WriteReg(R8, 0x00000000)  returns 0x00 (0000ms, 0696ms total)
T461C 001:116 JLINK_WriteReg(R9, 0x2000017C)  returns 0x00 (0000ms, 0696ms total)
T461C 001:116 JLINK_WriteReg(R10, 0x00000000)  returns 0x00 (0000ms, 0696ms total)
T461C 001:116 JLINK_WriteReg(R11, 0x00000000)  returns 0x00 (0000ms, 0696ms total)
T461C 001:116 JLINK_WriteReg(R12, 0x00000000)  returns 0x00 (0000ms, 0696ms total)
T461C 001:116 JLINK_WriteReg(R13 (SP), 0x20000800)  returns 0x00 (0000ms, 0696ms total)
T461C 001:116 JLINK_WriteReg(R14, 0x20000001)  returns 0x00 (0000ms, 0696ms total)
T461C 001:116 JLINK_WriteReg(R15 (PC), 0x20000054)  returns 0x00 (0000ms, 0696ms total)
T461C 001:116 JLINK_WriteReg(XPSR, 0x01000000)  returns 0x00 (0000ms, 0696ms total)
T461C 001:116 JLINK_WriteReg(MSP, 0x20000800)  returns 0x00 (0000ms, 0696ms total)
T461C 001:116 JLINK_WriteReg(PSP, 0x20000800)  returns 0x00 (0001ms, 0697ms total)
T461C 001:117 JLINK_WriteReg(CFBP, 0x00000000)  returns 0x00 (0000ms, 0697ms total)
T461C 001:117 JLINK_SetBPEx(Addr = 0x20000000, Type = 0xFFFFFFF2) -- CPU_ReadMem(2 bytes @ 0x20000000)  returns 0x00000001 (0000ms, 0697ms total)
T461C 001:117 JLINK_Go() -- CPU_WriteMem(2 bytes @ 0x20000000) -- CPU_WriteMem(4 bytes @ 0xE0002008) -- CPU_WriteMem(4 bytes @ 0xE000200C) -- CPU_WriteMem(4 bytes @ 0xE0002010) -- CPU_WriteMem(4 bytes @ 0xE0002014) -- CPU_WriteMem(4 bytes @ 0xE0002018) -- CPU_WriteMem(4 bytes @ 0xE000201C) -- CPU_WriteMem(4 bytes @ 0xE0001004) (0006ms, 0703ms total)
T461C 001:123 JLINK_IsHalted() -- CPU_ReadMem(2 bytes @ 0x20000000)  returns TRUE (0003ms, 0706ms total)
T461C 001:126 JLINK_ReadReg(R15 (PC))  returns 0x20000000 (0000ms, 0703ms total)
T461C 001:126 JLINK_ClrBPEx(BPHandle = 0x00000001)  returns 0x00 (0000ms, 0703ms total)
T461C 001:126 JLINK_ReadReg(R0)  returns 0x00000000 (0000ms, 0703ms total)
T461C 001:127 JLINK_WriteReg(R0, 0x08000000)  returns 0x00 (0000ms, 0703ms total)
T461C 001:127 JLINK_WriteReg(R1, 0x00004000)  returns 0x00 (0000ms, 0703ms total)
T461C 001:127 JLINK_WriteReg(R2, 0x000000FF)  returns 0x00 (0000ms, 0703ms total)
T461C 001:127 JLINK_WriteReg(R3, 0x00000000)  returns 0x00 (0000ms, 0703ms total)
T461C 001:127 JLINK_WriteReg(R4, 0x00000000)  returns 0x00 (0000ms, 0703ms total)
T461C 001:127 JLINK_WriteReg(R5, 0x00000000)  returns 0x00 (0000ms, 0703ms total)
T461C 001:127 JLINK_WriteReg(R6, 0x00000000)  returns 0x00 (0000ms, 0703ms total)
T461C 001:127 JLINK_WriteReg(R7, 0x00000000)  returns 0x00 (0000ms, 0703ms total)
T461C 001:127 JLINK_WriteReg(R8, 0x00000000)  returns 0x00 (0000ms, 0703ms total)
T461C 001:127 JLINK_WriteReg(R9, 0x2000017C)  returns 0x00 (0000ms, 0703ms total)
T461C 001:127 JLINK_WriteReg(R10, 0x00000000)  returns 0x00 (0000ms, 0703ms total)
T461C 001:127 JLINK_WriteReg(R11, 0x00000000)  returns 0x00 (0000ms, 0703ms total)
T461C 001:127 JLINK_WriteReg(R12, 0x00000000)  returns 0x00 (0000ms, 0703ms total)
T461C 001:127 JLINK_WriteReg(R13 (SP), 0x20000800)  returns 0x00 (0000ms, 0703ms total)
T461C 001:127 JLINK_WriteReg(R14, 0x20000001)  returns 0x00 (0000ms, 0703ms total)
T461C 001:127 JLINK_WriteReg(R15 (PC), 0x20000020)  returns 0x00 (0000ms, 0703ms total)
T461C 001:127 JLINK_WriteReg(XPSR, 0x01000000)  returns 0x00 (0000ms, 0703ms total)
T461C 001:127 JLINK_WriteReg(MSP, 0x20000800)  returns 0x00 (0000ms, 0703ms total)
T461C 001:127 JLINK_WriteReg(PSP, 0x20000800)  returns 0x00 (0001ms, 0704ms total)
T461C 001:128 JLINK_WriteReg(CFBP, 0x00000000)  returns 0x00 (0000ms, 0704ms total)
T461C 001:128 JLINK_SetBPEx(Addr = 0x20000000, Type = 0xFFFFFFF2)  returns 0x00000002 (0000ms, 0704ms total)
T461C 001:128 JLINK_Go() (0001ms, 0705ms total)
T461C 001:129 JLINK_IsHalted() -- CPU_ReadMem(2 bytes @ 0x20000000)  returns TRUE (0004ms, 0709ms total)
T461C 001:133 JLINK_ReadReg(R15 (PC))  returns 0x20000000 (0000ms, 0705ms total)
T461C 001:133 JLINK_ClrBPEx(BPHandle = 0x00000002)  returns 0x00 (0000ms, 0705ms total)
T461C 001:133 JLINK_ReadReg(R0)  returns 0x00000001 (0000ms, 0705ms total)
T461C 001:133 JLINK_WriteReg(R0, 0x08000000)  returns 0x00 (0000ms, 0705ms total)
T461C 001:133 JLINK_WriteReg(R1, 0x00004000)  returns 0x00 (0000ms, 0705ms total)
T461C 001:133 JLINK_WriteReg(R2, 0x000000FF)  returns 0x00 (0000ms, 0705ms total)
T461C 001:133 JLINK_WriteReg(R3, 0x00000000)  returns 0x00 (0000ms, 0705ms total)
T461C 001:133 JLINK_WriteReg(R4, 0x00000000)  returns 0x00 (0000ms, 0705ms total)
T461C 001:133 JLINK_WriteReg(R5, 0x00000000)  returns 0x00 (0000ms, 0705ms total)
T461C 001:133 JLINK_WriteReg(R6, 0x00000000)  returns 0x00 (0000ms, 0705ms total)
T461C 001:133 JLINK_WriteReg(R7, 0x00000000)  returns 0x00 (0000ms, 0705ms total)
T461C 001:133 JLINK_WriteReg(R8, 0x00000000)  returns 0x00 (0000ms, 0705ms total)
T461C 001:133 JLINK_WriteReg(R9, 0x2000017C)  returns 0x00 (0000ms, 0705ms total)
T461C 001:133 JLINK_WriteReg(R10, 0x00000000)  returns 0x00 (0000ms, 0705ms total)
T461C 001:133 JLINK_WriteReg(R11, 0x00000000)  returns 0x00 (0000ms, 0705ms total)
T461C 001:133 JLINK_WriteReg(R12, 0x00000000)  returns 0x00 (0000ms, 0705ms total)
T461C 001:133 JLINK_WriteReg(R13 (SP), 0x20000800)  returns 0x00 (0000ms, 0705ms total)
T461C 001:133 JLINK_WriteReg(R14, 0x20000001)  returns 0x00 (0000ms, 0705ms total)
T461C 001:133 JLINK_WriteReg(R15 (PC), 0x200000BC)  returns 0x00 (0000ms, 0705ms total)
T461C 001:133 JLINK_WriteReg(XPSR, 0x01000000)  returns 0x00 (0000ms, 0705ms total)
T461C 001:133 JLINK_WriteReg(MSP, 0x20000800)  returns 0x00 (0001ms, 0706ms total)
T461C 001:134 JLINK_WriteReg(PSP, 0x20000800)  returns 0x00 (0000ms, 0706ms total)
T461C 001:134 JLINK_WriteReg(CFBP, 0x00000000)  returns 0x00 (0000ms, 0706ms total)
T461C 001:134 JLINK_SetBPEx(Addr = 0x20000000, Type = 0xFFFFFFF2)  returns 0x00000003 (0000ms, 0706ms total)
T461C 001:134 JLINK_Go() (0001ms, 0707ms total)
T461C 001:135 JLINK_IsHalted()  returns FALSE (0001ms, 0708ms total)
T461C 001:356 JLINK_IsHalted()  returns FALSE (0001ms, 0708ms total)
T461C 001:425 JLINK_IsHalted()  returns FALSE (0000ms, 0707ms total)
T461C 001:427 JLINK_IsHalted()  returns FALSE (0000ms, 0707ms total)
T461C 001:457 JLINK_IsHalted()  returns FALSE (0000ms, 0707ms total)
T461C 001:459 JLINK_IsHalted()  returns FALSE (0000ms, 0707ms total)
T461C 001:461 JLINK_IsHalted()  returns FALSE (0000ms, 0707ms total)
T461C 001:463 JLINK_IsHalted()  returns FALSE (0001ms, 0708ms total)
T461C 001:550 JLINK_IsHalted() -- CPU_ReadMem(2 bytes @ 0x20000000)  returns TRUE (0004ms, 0711ms total)
T461C 001:554 JLINK_ReadReg(R15 (PC))  returns 0x20000000 (0000ms, 0707ms total)
T461C 001:554 JLINK_ClrBPEx(BPHandle = 0x00000003)  returns 0x00 (0000ms, 0707ms total)
T461C 001:554 JLINK_ReadReg(R0)  returns 0x00000000 (0000ms, 0707ms total)
T461C 001:555 JLINK_WriteReg(R0, 0x08004000)  returns 0x00 (0000ms, 0707ms total)
T461C 001:555 JLINK_WriteReg(R1, 0x00004000)  returns 0x00 (0000ms, 0707ms total)
T461C 001:555 JLINK_WriteReg(R2, 0x000000FF)  returns 0x00 (0000ms, 0707ms total)
T461C 001:555 JLINK_WriteReg(R3, 0x00000000)  returns 0x00 (0000ms, 0707ms total)
T461C 001:555 JLINK_WriteReg(R4, 0x00000000)  returns 0x00 (0000ms, 0707ms total)
T461C 001:555 JLINK_WriteReg(R5, 0x00000000)  returns 0x00 (0000ms, 0707ms total)
T461C 001:555 JLINK_WriteReg(R6, 0x00000000)  returns 0x00 (0000ms, 0707ms total)
T461C 001:555 JLINK_WriteReg(R7, 0x00000000)  returns 0x00 (0000ms, 0707ms total)
T461C 001:555 JLINK_WriteReg(R8, 0x00000000)  returns 0x00 (0000ms, 0707ms total)
T461C 001:555 JLINK_WriteReg(R9, 0x2000017C)  returns 0x00 (0000ms, 0707ms total)
T461C 001:555 JLINK_WriteReg(R10, 0x00000000)  returns 0x00 (0000ms, 0707ms total)
T461C 001:555 JLINK_WriteReg(R11, 0x00000000)  returns 0x00 (0001ms, 0708ms total)
T461C 001:556 JLINK_WriteReg(R12, 0x00000000)  returns 0x00 (0000ms, 0708ms total)
T461C 001:556 JLINK_WriteReg(R13 (SP), 0x20000800)  returns 0x00 (0000ms, 0708ms total)
T461C 001:556 JLINK_WriteReg(R14, 0x20000001)  returns 0x00 (0000ms, 0708ms total)
T461C 001:556 JLINK_WriteReg(R15 (PC), 0x20000020)  returns 0x00 (0000ms, 0708ms total)
T461C 001:556 JLINK_WriteReg(XPSR, 0x01000000)  returns 0x00 (0000ms, 0708ms total)
T461C 001:556 JLINK_WriteReg(MSP, 0x20000800)  returns 0x00 (0000ms, 0708ms total)
T461C 001:556 JLINK_WriteReg(PSP, 0x20000800)  returns 0x00 (0000ms, 0708ms total)
T461C 001:556 JLINK_WriteReg(CFBP, 0x00000000)  returns 0x00 (0000ms, 0708ms total)
T461C 001:556 JLINK_SetBPEx(Addr = 0x20000000, Type = 0xFFFFFFF2)  returns 0x00000004 (0000ms, 0708ms total)
T461C 001:556 JLINK_Go() (0002ms, 0710ms total)
T461C 001:558 JLINK_IsHalted() -- CPU_ReadMem(2 bytes @ 0x20000000)  returns TRUE (0003ms, 0713ms total)
T461C 001:561 JLINK_ReadReg(R15 (PC))  returns 0x20000000 (0000ms, 0710ms total)
T461C 001:561 JLINK_ClrBPEx(BPHandle = 0x00000004)  returns 0x00 (0000ms, 0710ms total)
T461C 001:562 JLINK_ReadReg(R0)  returns 0x00000001 (0000ms, 0711ms total)
T461C 001:562 JLINK_WriteReg(R0, 0x08004000)  returns 0x00 (0000ms, 0711ms total)
T461C 001:562 JLINK_WriteReg(R1, 0x00004000)  returns 0x00 (0000ms, 0711ms total)
T461C 001:562 JLINK_WriteReg(R2, 0x000000FF)  returns 0x00 (0000ms, 0711ms total)
T461C 001:562 JLINK_WriteReg(R3, 0x00000000)  returns 0x00 (0000ms, 0711ms total)
T461C 001:562 JLINK_WriteReg(R4, 0x00000000)  returns 0x00 (0000ms, 0711ms total)
T461C 001:562 JLINK_WriteReg(R5, 0x00000000)  returns 0x00 (0000ms, 0711ms total)
T461C 001:562 JLINK_WriteReg(R6, 0x00000000)  returns 0x00 (0000ms, 0711ms total)
T461C 001:562 JLINK_WriteReg(R7, 0x00000000)  returns 0x00 (0000ms, 0711ms total)
T461C 001:562 JLINK_WriteReg(R8, 0x00000000)  returns 0x00 (0000ms, 0711ms total)
T461C 001:562 JLINK_WriteReg(R9, 0x2000017C)  returns 0x00 (0000ms, 0711ms total)
T461C 001:562 JLINK_WriteReg(R10, 0x00000000)  returns 0x00 (0000ms, 0711ms total)
T461C 001:562 JLINK_WriteReg(R11, 0x00000000)  returns 0x00 (0000ms, 0711ms total)
T461C 001:562 JLINK_WriteReg(R12, 0x00000000)  returns 0x00 (0000ms, 0711ms total)
T461C 001:562 JLINK_WriteReg(R13 (SP), 0x20000800)  returns 0x00 (0000ms, 0711ms total)
T461C 001:562 JLINK_WriteReg(R14, 0x20000001)  returns 0x00 (0000ms, 0711ms total)
T461C 001:562 JLINK_WriteReg(R15 (PC), 0x200000BC)  returns 0x00 (0000ms, 0711ms total)
T461C 001:562 JLINK_WriteReg(XPSR, 0x01000000)  returns 0x00 (0000ms, 0711ms total)
T461C 001:562 JLINK_WriteReg(MSP, 0x20000800)  returns 0x00 (0000ms, 0711ms total)
T461C 001:562 JLINK_WriteReg(PSP, 0x20000800)  returns 0x00 (0000ms, 0711ms total)
T461C 001:562 JLINK_WriteReg(CFBP, 0x00000000)  returns 0x00 (0000ms, 0711ms total)
T461C 001:562 JLINK_SetBPEx(Addr = 0x20000000, Type = 0xFFFFFFF2)  returns 0x00000005 (0000ms, 0711ms total)
T461C 001:562 JLINK_Go() (0002ms, 0713ms total)
T461C 001:564 JLINK_IsHalted()  returns FALSE (0001ms, 0714ms total)
T461C 001:659 JLINK_IsHalted()  returns FALSE (0000ms, 0713ms total)
T461C 001:674 JLINK_IsHalted()  returns FALSE (0001ms, 0714ms total)
T461C 001:677 JLINK_IsHalted()  returns FALSE (0000ms, 0713ms total)
T461C 001:679 JLINK_IsHalted()  returns FALSE (0001ms, 0714ms total)
T461C 001:755 JLINK_IsHalted()  returns FALSE (0000ms, 0713ms total)
T461C 001:774 JLINK_IsHalted()  returns FALSE (0000ms, 0713ms total)
T461C 001:776 JLINK_IsHalted()  returns FALSE (0001ms, 0714ms total)
T461C 001:798 JLINK_IsHalted()  returns FALSE (0001ms, 0714ms total)
T461C 001:894 JLINK_IsHalted()  returns FALSE (0001ms, 0714ms total)
T461C 001:896 JLINK_IsHalted()  returns FALSE (0001ms, 0714ms total)
T461C 001:898 JLINK_IsHalted()  returns FALSE (0001ms, 0714ms total)
T461C 002:083 JLINK_IsHalted() -- CPU_ReadMem(2 bytes @ 0x20000000)  returns TRUE (0004ms, 0717ms total)
T461C 002:087 JLINK_ReadReg(R15 (PC))  returns 0x20000000 (0000ms, 0713ms total)
T461C 002:087 JLINK_ClrBPEx(BPHandle = 0x00000005)  returns 0x00 (0000ms, 0713ms total)
T461C 002:087 JLINK_ReadReg(R0)  returns 0x00000000 (0000ms, 0713ms total)
T461C 002:088 JLINK_WriteReg(R0, 0x08008000)  returns 0x00 (0000ms, 0713ms total)
T461C 002:088 JLINK_WriteReg(R1, 0x00004000)  returns 0x00 (0000ms, 0713ms total)
T461C 002:088 JLINK_WriteReg(R2, 0x000000FF)  returns 0x00 (0000ms, 0713ms total)
T461C 002:088 JLINK_WriteReg(R3, 0x00000000)  returns 0x00 (0000ms, 0713ms total)
T461C 002:088 JLINK_WriteReg(R4, 0x00000000)  returns 0x00 (0000ms, 0713ms total)
T461C 002:088 JLINK_WriteReg(R5, 0x00000000)  returns 0x00 (0000ms, 0713ms total)
T461C 002:088 JLINK_WriteReg(R6, 0x00000000)  returns 0x00 (0000ms, 0713ms total)
T461C 002:088 JLINK_WriteReg(R7, 0x00000000)  returns 0x00 (0000ms, 0713ms total)
T461C 002:088 JLINK_WriteReg(R8, 0x00000000)  returns 0x00 (0000ms, 0713ms total)
T461C 002:088 JLINK_WriteReg(R9, 0x2000017C)  returns 0x00 (0000ms, 0713ms total)
T461C 002:088 JLINK_WriteReg(R10, 0x00000000)  returns 0x00 (0000ms, 0713ms total)
T461C 002:088 JLINK_WriteReg(R11, 0x00000000)  returns 0x00 (0000ms, 0713ms total)
T461C 002:088 JLINK_WriteReg(R12, 0x00000000)  returns 0x00 (0000ms, 0713ms total)
T461C 002:089 JLINK_WriteReg(R13 (SP), 0x20000800)  returns 0x00 (0000ms, 0714ms total)
T461C 002:089 JLINK_WriteReg(R14, 0x20000001)  returns 0x00 (0000ms, 0714ms total)
T461C 002:089 JLINK_WriteReg(R15 (PC), 0x20000020)  returns 0x00 (0000ms, 0714ms total)
T461C 002:089 JLINK_WriteReg(XPSR, 0x01000000)  returns 0x00 (0000ms, 0714ms total)
T461C 002:089 JLINK_WriteReg(MSP, 0x20000800)  returns 0x00 (0000ms, 0714ms total)
T461C 002:089 JLINK_WriteReg(PSP, 0x20000800)  returns 0x00 (0000ms, 0714ms total)
T461C 002:089 JLINK_WriteReg(CFBP, 0x00000000)  returns 0x00 (0000ms, 0714ms total)
T461C 002:089 JLINK_SetBPEx(Addr = 0x20000000, Type = 0xFFFFFFF2)  returns 0x00000006 (0000ms, 0714ms total)
T461C 002:089 JLINK_Go() (0002ms, 0716ms total)
T461C 002:091 JLINK_IsHalted() -- CPU_ReadMem(2 bytes @ 0x20000000)  returns TRUE (0003ms, 0719ms total)
T461C 002:094 JLINK_ReadReg(R15 (PC))  returns 0x20000000 (0000ms, 0716ms total)
T461C 002:094 JLINK_ClrBPEx(BPHandle = 0x00000006)  returns 0x00 (0001ms, 0717ms total)
T461C 002:095 JLINK_ReadReg(R0)  returns 0x00000001 (0000ms, 0717ms total)
T461C 002:095 JLINK_WriteReg(R0, 0x08008000)  returns 0x00 (0000ms, 0717ms total)
T461C 002:095 JLINK_WriteReg(R1, 0x00004000)  returns 0x00 (0000ms, 0717ms total)
T461C 002:095 JLINK_WriteReg(R2, 0x000000FF)  returns 0x00 (0000ms, 0717ms total)
T461C 002:095 JLINK_WriteReg(R3, 0x00000000)  returns 0x00 (0000ms, 0717ms total)
T461C 002:095 JLINK_WriteReg(R4, 0x00000000)  returns 0x00 (0000ms, 0717ms total)
T461C 002:095 JLINK_WriteReg(R5, 0x00000000)  returns 0x00 (0000ms, 0717ms total)
T461C 002:095 JLINK_WriteReg(R6, 0x00000000)  returns 0x00 (0000ms, 0717ms total)
T461C 002:095 JLINK_WriteReg(R7, 0x00000000)  returns 0x00 (0000ms, 0717ms total)
T461C 002:095 JLINK_WriteReg(R8, 0x00000000)  returns 0x00 (0000ms, 0717ms total)
T461C 002:095 JLINK_WriteReg(R9, 0x2000017C)  returns 0x00 (0000ms, 0717ms total)
T461C 002:095 JLINK_WriteReg(R10, 0x00000000)  returns 0x00 (0000ms, 0717ms total)
T461C 002:095 JLINK_WriteReg(R11, 0x00000000)  returns 0x00 (0000ms, 0717ms total)
T461C 002:095 JLINK_WriteReg(R12, 0x00000000)  returns 0x00 (0000ms, 0717ms total)
T461C 002:095 JLINK_WriteReg(R13 (SP), 0x20000800)  returns 0x00 (0000ms, 0717ms total)
T461C 002:095 JLINK_WriteReg(R14, 0x20000001)  returns 0x00 (0000ms, 0717ms total)
T461C 002:095 JLINK_WriteReg(R15 (PC), 0x200000BC)  returns 0x00 (0000ms, 0717ms total)
T461C 002:095 JLINK_WriteReg(XPSR, 0x01000000)  returns 0x00 (0000ms, 0717ms total)
T461C 002:095 JLINK_WriteReg(MSP, 0x20000800)  returns 0x00 (0000ms, 0717ms total)
T461C 002:095 JLINK_WriteReg(PSP, 0x20000800)  returns 0x00 (0000ms, 0717ms total)
T461C 002:095 JLINK_WriteReg(CFBP, 0x00000000)  returns 0x00 (0000ms, 0717ms total)
T461C 002:095 JLINK_SetBPEx(Addr = 0x20000000, Type = 0xFFFFFFF2)  returns 0x00000007 (0000ms, 0717ms total)
T461C 002:096 JLINK_Go() (0001ms, 0719ms total)
T461C 002:097 JLINK_IsHalted()  returns FALSE (0001ms, 0720ms total)
T461C 002:238 JLINK_IsHalted()  returns FALSE (0001ms, 0720ms total)
T461C 002:333 JLINK_IsHalted()  returns FALSE (0000ms, 0719ms total)
T461C 002:335 JLINK_IsHalted()  returns FALSE (0000ms, 0719ms total)
T461C 002:337 JLINK_IsHalted()  returns FALSE (0000ms, 0719ms total)
T461C 002:427 JLINK_IsHalted()  returns FALSE (0001ms, 0720ms total)
T461C 002:452 JLINK_IsHalted()  returns FALSE (0000ms, 0719ms total)
T461C 002:454 JLINK_IsHalted()  returns FALSE (0001ms, 0720ms total)
T461C 002:456 JLINK_IsHalted()  returns FALSE (0001ms, 0720ms total)
T461C 002:458 JLINK_IsHalted()  returns FALSE (0001ms, 0720ms total)
T461C 002:517 JLINK_IsHalted() -- CPU_ReadMem(2 bytes @ 0x20000000)  returns TRUE (0004ms, 0723ms total)
T461C 002:521 JLINK_ReadReg(R15 (PC))  returns 0x20000000 (0000ms, 0719ms total)
T461C 002:521 JLINK_ClrBPEx(BPHandle = 0x00000007)  returns 0x00 (0000ms, 0719ms total)
T461C 002:521 JLINK_ReadReg(R0)  returns 0x00000000 (0000ms, 0719ms total)
T461C 002:522 JLINK_WriteReg(R0, 0x0800C000)  returns 0x00 (0000ms, 0719ms total)
T461C 002:522 JLINK_WriteReg(R1, 0x00004000)  returns 0x00 (0000ms, 0719ms total)
T461C 002:522 JLINK_WriteReg(R2, 0x000000FF)  returns 0x00 (0000ms, 0719ms total)
T461C 002:522 JLINK_WriteReg(R3, 0x00000000)  returns 0x00 (0000ms, 0719ms total)
T461C 002:522 JLINK_WriteReg(R4, 0x00000000)  returns 0x00 (0000ms, 0719ms total)
T461C 002:522 JLINK_WriteReg(R5, 0x00000000)  returns 0x00 (0000ms, 0719ms total)
T461C 002:522 JLINK_WriteReg(R6, 0x00000000)  returns 0x00 (0000ms, 0719ms total)
T461C 002:522 JLINK_WriteReg(R7, 0x00000000)  returns 0x00 (0000ms, 0719ms total)
T461C 002:522 JLINK_WriteReg(R8, 0x00000000)  returns 0x00 (0000ms, 0719ms total)
T461C 002:522 JLINK_WriteReg(R9, 0x2000017C)  returns 0x00 (0000ms, 0719ms total)
T461C 002:522 JLINK_WriteReg(R10, 0x00000000)  returns 0x00 (0000ms, 0719ms total)
T461C 002:522 JLINK_WriteReg(R11, 0x00000000)  returns 0x00 (0000ms, 0719ms total)
T461C 002:522 JLINK_WriteReg(R12, 0x00000000)  returns 0x00 (0000ms, 0719ms total)
T461C 002:522 JLINK_WriteReg(R13 (SP), 0x20000800)  returns 0x00 (0000ms, 0719ms total)
T461C 002:522 JLINK_WriteReg(R14, 0x20000001)  returns 0x00 (0001ms, 0720ms total)
T461C 002:523 JLINK_WriteReg(R15 (PC), 0x20000020)  returns 0x00 (0000ms, 0720ms total)
T461C 002:523 JLINK_WriteReg(XPSR, 0x01000000)  returns 0x00 (0000ms, 0720ms total)
T461C 002:523 JLINK_WriteReg(MSP, 0x20000800)  returns 0x00 (0000ms, 0720ms total)
T461C 002:523 JLINK_WriteReg(PSP, 0x20000800)  returns 0x00 (0000ms, 0720ms total)
T461C 002:523 JLINK_WriteReg(CFBP, 0x00000000)  returns 0x00 (0000ms, 0720ms total)
T461C 002:523 JLINK_SetBPEx(Addr = 0x20000000, Type = 0xFFFFFFF2)  returns 0x00000008 (0000ms, 0720ms total)
T461C 002:523 JLINK_Go() (0002ms, 0722ms total)
T461C 002:525 JLINK_IsHalted() -- CPU_ReadMem(2 bytes @ 0x20000000)  returns TRUE (0003ms, 0725ms total)
T461C 002:528 JLINK_ReadReg(R15 (PC))  returns 0x20000000 (0000ms, 0722ms total)
T461C 002:528 JLINK_ClrBPEx(BPHandle = 0x00000008)  returns 0x00 (0000ms, 0722ms total)
T461C 002:528 JLINK_ReadReg(R0)  returns 0x00000001 (0000ms, 0722ms total)
T461C 002:528 JLINK_WriteReg(R0, 0x0800C000)  returns 0x00 (0000ms, 0722ms total)
T461C 002:528 JLINK_WriteReg(R1, 0x00004000)  returns 0x00 (0000ms, 0722ms total)
T461C 002:528 JLINK_WriteReg(R2, 0x000000FF)  returns 0x00 (0000ms, 0722ms total)
T461C 002:529 JLINK_WriteReg(R3, 0x00000000)  returns 0x00 (0000ms, 0723ms total)
T461C 002:529 JLINK_WriteReg(R4, 0x00000000)  returns 0x00 (0000ms, 0723ms total)
T461C 002:529 JLINK_WriteReg(R5, 0x00000000)  returns 0x00 (0000ms, 0723ms total)
T461C 002:529 JLINK_WriteReg(R6, 0x00000000)  returns 0x00 (0000ms, 0723ms total)
T461C 002:529 JLINK_WriteReg(R7, 0x00000000)  returns 0x00 (0000ms, 0723ms total)
T461C 002:529 JLINK_WriteReg(R8, 0x00000000)  returns 0x00 (0000ms, 0723ms total)
T461C 002:529 JLINK_WriteReg(R9, 0x2000017C)  returns 0x00 (0000ms, 0723ms total)
T461C 002:529 JLINK_WriteReg(R10, 0x00000000)  returns 0x00 (0000ms, 0723ms total)
T461C 002:529 JLINK_WriteReg(R11, 0x00000000)  returns 0x00 (0000ms, 0723ms total)
T461C 002:529 JLINK_WriteReg(R12, 0x00000000)  returns 0x00 (0000ms, 0723ms total)
T461C 002:529 JLINK_WriteReg(R13 (SP), 0x20000800)  returns 0x00 (0000ms, 0723ms total)
T461C 002:529 JLINK_WriteReg(R14, 0x20000001)  returns 0x00 (0000ms, 0723ms total)
T461C 002:529 JLINK_WriteReg(R15 (PC), 0x200000BC)  returns 0x00 (0000ms, 0723ms total)
T461C 002:529 JLINK_WriteReg(XPSR, 0x01000000)  returns 0x00 (0000ms, 0723ms total)
T461C 002:529 JLINK_WriteReg(MSP, 0x20000800)  returns 0x00 (0000ms, 0723ms total)
T461C 002:529 JLINK_WriteReg(PSP, 0x20000800)  returns 0x00 (0000ms, 0723ms total)
T461C 002:529 JLINK_WriteReg(CFBP, 0x00000000)  returns 0x00 (0000ms, 0723ms total)
T461C 002:529 JLINK_SetBPEx(Addr = 0x20000000, Type = 0xFFFFFFF2)  returns 0x00000009 (0000ms, 0723ms total)
T461C 002:529 JLINK_Go() (0002ms, 0725ms total)
T461C 002:531 JLINK_IsHalted()  returns FALSE (0001ms, 0726ms total)
T461C 002:676 JLINK_IsHalted()  returns FALSE (0001ms, 0726ms total)
T461C 002:678 JLINK_IsHalted()  returns FALSE (0001ms, 0726ms total)
T461C 002:736 JLINK_IsHalted()  returns FALSE (0000ms, 0725ms total)
T461C 002:738 JLINK_IsHalted()  returns FALSE (0001ms, 0726ms total)
T461C 002:770 JLINK_IsHalted()  returns FALSE (0000ms, 0725ms total)
T461C 002:772 JLINK_IsHalted()  returns FALSE (0001ms, 0726ms total)
T461C 002:774 JLINK_IsHalted()  returns FALSE (0001ms, 0726ms total)
T461C 002:786 JLINK_IsHalted()  returns FALSE (0000ms, 0725ms total)
T461C 002:843 JLINK_IsHalted()  returns FALSE (0001ms, 0726ms total)
T461C 002:846 JLINK_IsHalted()  returns FALSE (0000ms, 0726ms total)
T461C 002:861 JLINK_IsHalted()  returns FALSE (0001ms, 0727ms total)
T461C 002:863 JLINK_IsHalted()  returns FALSE (0001ms, 0727ms total)
T461C 002:865 JLINK_IsHalted()  returns FALSE (0001ms, 0727ms total)
T461C 002:894 JLINK_IsHalted()  returns FALSE (0001ms, 0727ms total)
T461C 002:973 JLINK_IsHalted() -- CPU_ReadMem(2 bytes @ 0x20000000)  returns TRUE (0004ms, 0730ms total)
T461C 002:977 JLINK_ReadReg(R15 (PC))  returns 0x20000000 (0000ms, 0726ms total)
T461C 002:977 JLINK_ClrBPEx(BPHandle = 0x00000009)  returns 0x00 (0000ms, 0726ms total)
T461C 002:977 JLINK_ReadReg(R0)  returns 0x00000000 (0000ms, 0726ms total)
T461C 002:977 JLINK_WriteReg(R0, 0x00000001)  returns 0x00 (0001ms, 0727ms total)
T461C 002:978 JLINK_WriteReg(R1, 0x00004000)  returns 0x00 (0000ms, 0727ms total)
T461C 002:978 JLINK_WriteReg(R2, 0x000000FF)  returns 0x00 (0000ms, 0727ms total)
T461C 002:978 JLINK_WriteReg(R3, 0x00000000)  returns 0x00 (0000ms, 0727ms total)
T461C 002:978 JLINK_WriteReg(R4, 0x00000000)  returns 0x00 (0000ms, 0727ms total)
T461C 002:978 JLINK_WriteReg(R5, 0x00000000)  returns 0x00 (0000ms, 0727ms total)
T461C 002:978 JLINK_WriteReg(R6, 0x00000000)  returns 0x00 (0000ms, 0727ms total)
T461C 002:978 JLINK_WriteReg(R7, 0x00000000)  returns 0x00 (0000ms, 0727ms total)
T461C 002:978 JLINK_WriteReg(R8, 0x00000000)  returns 0x00 (0000ms, 0727ms total)
T461C 002:978 JLINK_WriteReg(R9, 0x2000017C)  returns 0x00 (0000ms, 0727ms total)
T461C 002:978 JLINK_WriteReg(R10, 0x00000000)  returns 0x00 (0000ms, 0727ms total)
T461C 002:978 JLINK_WriteReg(R11, 0x00000000)  returns 0x00 (0000ms, 0727ms total)
T461C 002:978 JLINK_WriteReg(R12, 0x00000000)  returns 0x00 (0000ms, 0727ms total)
T461C 002:978 JLINK_WriteReg(R13 (SP), 0x20000800)  returns 0x00 (0000ms, 0727ms total)
T461C 002:978 JLINK_WriteReg(R14, 0x20000001)  returns 0x00 (0000ms, 0727ms total)
T461C 002:978 JLINK_WriteReg(R15 (PC), 0x20000082)  returns 0x00 (0000ms, 0727ms total)
T461C 002:978 JLINK_WriteReg(XPSR, 0x01000000)  returns 0x00 (0000ms, 0727ms total)
T461C 002:978 JLINK_WriteReg(MSP, 0x20000800)  returns 0x00 (0000ms, 0727ms total)
T461C 002:978 JLINK_WriteReg(PSP, 0x20000800)  returns 0x00 (0000ms, 0727ms total)
T461C 002:978 JLINK_WriteReg(CFBP, 0x00000000)  returns 0x00 (0000ms, 0727ms total)
T461C 002:978 JLINK_SetBPEx(Addr = 0x20000000, Type = 0xFFFFFFF2)  returns 0x0000000A (0000ms, 0727ms total)
T461C 002:978 JLINK_Go() (0002ms, 0729ms total)
T461C 002:980 JLINK_IsHalted() -- CPU_ReadMem(2 bytes @ 0x20000000)  returns TRUE (0004ms, 0733ms total)
T461C 002:984 JLINK_ReadReg(R15 (PC))  returns 0x20000000 (0000ms, 0729ms total)
T461C 002:984 JLINK_ClrBPEx(BPHandle = 0x0000000A)  returns 0x00 (0000ms, 0729ms total)
T461C 002:984 JLINK_ReadReg(R0)  returns 0x00000000 (0000ms, 0729ms total)
T461C 003:057 JLINK_WriteMem(0x20000000, 0x0180 Bytes, ...) - Data: 00 BE 0A E0 0D 78 2D 06 68 40 08 24 40 00 00 D3 ... -- CPU_WriteMem(384 bytes @ 0x20000000)  returns 0x180 (0003ms, 0732ms total)
T461C 003:060 JLINK_WriteReg(R0, 0x08000000)  returns 0x00 (0000ms, 0732ms total)
T461C 003:060 JLINK_WriteReg(R1, 0x007A1200)  returns 0x00 (0000ms, 0732ms total)
T461C 003:060 JLINK_WriteReg(R2, 0x00000002)  returns 0x00 (0000ms, 0732ms total)
T461C 003:060 JLINK_WriteReg(R3, 0x00000000)  returns 0x00 (0000ms, 0732ms total)
T461C 003:060 JLINK_WriteReg(R4, 0x00000000)  returns 0x00 (0000ms, 0732ms total)
T461C 003:060 JLINK_WriteReg(R5, 0x00000000)  returns 0x00 (0000ms, 0732ms total)
T461C 003:060 JLINK_WriteReg(R6, 0x00000000)  returns 0x00 (0000ms, 0732ms total)
T461C 003:061 JLINK_WriteReg(R7, 0x00000000)  returns 0x00 (0000ms, 0733ms total)
T461C 003:061 JLINK_WriteReg(R8, 0x00000000)  returns 0x00 (0000ms, 0733ms total)
T461C 003:061 JLINK_WriteReg(R9, 0x2000017C)  returns 0x00 (0000ms, 0733ms total)
T461C 003:061 JLINK_WriteReg(R10, 0x00000000)  returns 0x00 (0000ms, 0733ms total)
T461C 003:061 JLINK_WriteReg(R11, 0x00000000)  returns 0x00 (0000ms, 0733ms total)
T461C 003:061 JLINK_WriteReg(R12, 0x00000000)  returns 0x00 (0000ms, 0733ms total)
T461C 003:061 JLINK_WriteReg(R13 (SP), 0x20000800)  returns 0x00 (0000ms, 0733ms total)
T461C 003:061 JLINK_WriteReg(R14, 0x20000001)  returns 0x00 (0000ms, 0733ms total)
T461C 003:061 JLINK_WriteReg(R15 (PC), 0x20000054)  returns 0x00 (0000ms, 0733ms total)
T461C 003:061 JLINK_WriteReg(XPSR, 0x01000000)  returns 0x00 (0000ms, 0733ms total)
T461C 003:061 JLINK_WriteReg(MSP, 0x20000800)  returns 0x00 (0000ms, 0733ms total)
T461C 003:061 JLINK_WriteReg(PSP, 0x20000800)  returns 0x00 (0000ms, 0733ms total)
T461C 003:061 JLINK_WriteReg(CFBP, 0x00000000)  returns 0x00 (0000ms, 0733ms total)
T461C 003:061 JLINK_SetBPEx(Addr = 0x20000000, Type = 0xFFFFFFF2) -- CPU_ReadMem(2 bytes @ 0x20000000)  returns 0x0000000B (0001ms, 0734ms total)
T461C 003:062 JLINK_Go() -- CPU_WriteMem(2 bytes @ 0x20000000) (0002ms, 0736ms total)
T461C 003:064 JLINK_IsHalted() -- CPU_ReadMem(2 bytes @ 0x20000000)  returns TRUE (0004ms, 0740ms total)
T461C 003:068 JLINK_ReadReg(R15 (PC))  returns 0x20000000 (0000ms, 0736ms total)
T461C 003:068 JLINK_ClrBPEx(BPHandle = 0x0000000B)  returns 0x00 (0000ms, 0736ms total)
T461C 003:068 JLINK_ReadReg(R0)  returns 0x00000000 (0000ms, 0736ms total)
T461C 003:069 JLINK_WriteMem(0x20000180, 0x0400 Bytes, ...) - Data: F8 86 00 20 9D 01 00 08 0D 5F 00 08 B5 1B 00 08 ... -- CPU_WriteMem(1024 bytes @ 0x20000180)  returns 0x400 (0007ms, 0743ms total)
T461C 003:076 JLINK_WriteReg(R0, 0x08000000)  returns 0x00 (0000ms, 0743ms total)
T461C 003:076 JLINK_WriteReg(R1, 0x00000400)  returns 0x00 (0000ms, 0743ms total)
T461C 003:076 JLINK_WriteReg(R2, 0x20000180)  returns 0x00 (0000ms, 0743ms total)
T461C 003:076 JLINK_WriteReg(R3, 0x00000000)  returns 0x00 (0000ms, 0743ms total)
T461C 003:076 JLINK_WriteReg(R4, 0x00000000)  returns 0x00 (0000ms, 0743ms total)
T461C 003:076 JLINK_WriteReg(R5, 0x00000000)  returns 0x00 (0000ms, 0743ms total)
T461C 003:076 JLINK_WriteReg(R6, 0x00000000)  returns 0x00 (0000ms, 0743ms total)
T461C 003:076 JLINK_WriteReg(R7, 0x00000000)  returns 0x00 (0000ms, 0743ms total)
T461C 003:076 JLINK_WriteReg(R8, 0x00000000)  returns 0x00 (0000ms, 0743ms total)
T461C 003:076 JLINK_WriteReg(R9, 0x2000017C)  returns 0x00 (0000ms, 0743ms total)
T461C 003:076 JLINK_WriteReg(R10, 0x00000000)  returns 0x00 (0000ms, 0743ms total)
T461C 003:076 JLINK_WriteReg(R11, 0x00000000)  returns 0x00 (0000ms, 0743ms total)
T461C 003:076 JLINK_WriteReg(R12, 0x00000000)  returns 0x00 (0000ms, 0743ms total)
T461C 003:076 JLINK_WriteReg(R13 (SP), 0x20000800)  returns 0x00 (0000ms, 0743ms total)
T461C 003:076 JLINK_WriteReg(R14, 0x20000001)  returns 0x00 (0000ms, 0743ms total)
T461C 003:076 JLINK_WriteReg(R15 (PC), 0x20000108)  returns 0x00 (0000ms, 0743ms total)
T461C 003:076 JLINK_WriteReg(XPSR, 0x01000000)  returns 0x00 (0000ms, 0743ms total)
T461C 003:076 JLINK_WriteReg(MSP, 0x20000800)  returns 0x00 (0000ms, 0743ms total)
T461C 003:076 JLINK_WriteReg(PSP, 0x20000800)  returns 0x00 (0000ms, 0743ms total)
T461C 003:076 JLINK_WriteReg(CFBP, 0x00000000)  returns 0x00 (0000ms, 0743ms total)
T461C 003:076 JLINK_SetBPEx(Addr = 0x20000000, Type = 0xFFFFFFF2)  returns 0x0000000C (0000ms, 0743ms total)
T461C 003:076 JLINK_Go() (0002ms, 0745ms total)
T461C 003:078 JLINK_IsHalted()  returns FALSE (0001ms, 0746ms total)
T461C 003:211 JLINK_IsHalted() -- CPU_ReadMem(2 bytes @ 0x20000000)  returns TRUE (0004ms, 0749ms total)
T461C 003:215 JLINK_ReadReg(R15 (PC))  returns 0x20000000 (0000ms, 0745ms total)
T461C 003:215 JLINK_ClrBPEx(BPHandle = 0x0000000C)  returns 0x00 (0000ms, 0745ms total)
T461C 003:215 JLINK_ReadReg(R0)  returns 0x00000000 (0000ms, 0745ms total)
T461C 003:216 JLINK_WriteMem(0x20000180, 0x0400 Bytes, ...) - Data: 9C 0C 4F F0 00 08 C1 46 AC F1 01 0E 4F EA 48 03 ... -- CPU_WriteMem(1024 bytes @ 0x20000180)  returns 0x400 (0007ms, 0752ms total)
T461C 003:223 JLINK_WriteReg(R0, 0x08000400)  returns 0x00 (0000ms, 0752ms total)
T461C 003:223 JLINK_WriteReg(R1, 0x00000400)  returns 0x00 (0000ms, 0752ms total)
T461C 003:223 JLINK_WriteReg(R2, 0x20000180)  returns 0x00 (0000ms, 0752ms total)
T461C 003:223 JLINK_WriteReg(R3, 0x00000000)  returns 0x00 (0000ms, 0752ms total)
T461C 003:223 JLINK_WriteReg(R4, 0x00000000)  returns 0x00 (0000ms, 0752ms total)
T461C 003:223 JLINK_WriteReg(R5, 0x00000000)  returns 0x00 (0000ms, 0752ms total)
T461C 003:223 JLINK_WriteReg(R6, 0x00000000)  returns 0x00 (0001ms, 0753ms total)
T461C 003:224 JLINK_WriteReg(R7, 0x00000000)  returns 0x00 (0000ms, 0753ms total)
T461C 003:224 JLINK_WriteReg(R8, 0x00000000)  returns 0x00 (0000ms, 0753ms total)
T461C 003:224 JLINK_WriteReg(R9, 0x2000017C)  returns 0x00 (0000ms, 0753ms total)
T461C 003:224 JLINK_WriteReg(R10, 0x00000000)  returns 0x00 (0000ms, 0753ms total)
T461C 003:224 JLINK_WriteReg(R11, 0x00000000)  returns 0x00 (0000ms, 0753ms total)
T461C 003:224 JLINK_WriteReg(R12, 0x00000000)  returns 0x00 (0000ms, 0753ms total)
T461C 003:224 JLINK_WriteReg(R13 (SP), 0x20000800)  returns 0x00 (0000ms, 0753ms total)
T461C 003:224 JLINK_WriteReg(R14, 0x20000001)  returns 0x00 (0000ms, 0753ms total)
T461C 003:224 JLINK_WriteReg(R15 (PC), 0x20000108)  returns 0x00 (0000ms, 0753ms total)
T461C 003:224 JLINK_WriteReg(XPSR, 0x01000000)  returns 0x00 (0000ms, 0753ms total)
T461C 003:224 JLINK_WriteReg(MSP, 0x20000800)  returns 0x00 (0000ms, 0753ms total)
T461C 003:224 JLINK_WriteReg(PSP, 0x20000800)  returns 0x00 (0000ms, 0753ms total)
T461C 003:224 JLINK_WriteReg(CFBP, 0x00000000)  returns 0x00 (0000ms, 0753ms total)
T461C 003:224 JLINK_SetBPEx(Addr = 0x20000000, Type = 0xFFFFFFF2)  returns 0x0000000D (0000ms, 0753ms total)
T461C 003:224 JLINK_Go() (0002ms, 0755ms total)
T461C 003:226 JLINK_IsHalted()  returns FALSE (0001ms, 0756ms total)
T461C 003:398 JLINK_IsHalted() -- CPU_ReadMem(2 bytes @ 0x20000000)  returns TRUE (0004ms, 0759ms total)
T461C 003:402 JLINK_ReadReg(R15 (PC))  returns 0x20000000 (0000ms, 0755ms total)
T461C 003:402 JLINK_ClrBPEx(BPHandle = 0x0000000D)  returns 0x00 (0000ms, 0755ms total)
T461C 003:402 JLINK_ReadReg(R0)  returns 0x00000000 (0000ms, 0755ms total)
T461C 003:403 JLINK_WriteMem(0x20000180, 0x0400 Bytes, ...) - Data: 67 EE A5 7A 29 EE 07 9A 60 EE 87 0A 24 EE 03 4A ... -- CPU_WriteMem(1024 bytes @ 0x20000180)  returns 0x400 (0006ms, 0761ms total)
T461C 003:409 JLINK_WriteReg(R0, 0x08000800)  returns 0x00 (0000ms, 0761ms total)
T461C 003:410 JLINK_WriteReg(R1, 0x00000400)  returns 0x00 (0000ms, 0761ms total)
T461C 003:410 JLINK_WriteReg(R2, 0x20000180)  returns 0x00 (0000ms, 0761ms total)
T461C 003:410 JLINK_WriteReg(R3, 0x00000000)  returns 0x00 (0000ms, 0761ms total)
T461C 003:410 JLINK_WriteReg(R4, 0x00000000)  returns 0x00 (0000ms, 0761ms total)
T461C 003:410 JLINK_WriteReg(R5, 0x00000000)  returns 0x00 (0000ms, 0761ms total)
T461C 003:410 JLINK_WriteReg(R6, 0x00000000)  returns 0x00 (0000ms, 0761ms total)
T461C 003:410 JLINK_WriteReg(R7, 0x00000000)  returns 0x00 (0000ms, 0761ms total)
T461C 003:410 JLINK_WriteReg(R8, 0x00000000)  returns 0x00 (0000ms, 0761ms total)
T461C 003:410 JLINK_WriteReg(R9, 0x2000017C)  returns 0x00 (0000ms, 0761ms total)
T461C 003:410 JLINK_WriteReg(R10, 0x00000000)  returns 0x00 (0000ms, 0761ms total)
T461C 003:410 JLINK_WriteReg(R11, 0x00000000)  returns 0x00 (0000ms, 0761ms total)
T461C 003:410 JLINK_WriteReg(R12, 0x00000000)  returns 0x00 (0000ms, 0761ms total)
T461C 003:410 JLINK_WriteReg(R13 (SP), 0x20000800)  returns 0x00 (0000ms, 0761ms total)
T461C 003:410 JLINK_WriteReg(R14, 0x20000001)  returns 0x00 (0000ms, 0761ms total)
T461C 003:410 JLINK_WriteReg(R15 (PC), 0x20000108)  returns 0x00 (0000ms, 0761ms total)
T461C 003:410 JLINK_WriteReg(XPSR, 0x01000000)  returns 0x00 (0000ms, 0761ms total)
T461C 003:410 JLINK_WriteReg(MSP, 0x20000800)  returns 0x00 (0000ms, 0761ms total)
T461C 003:410 JLINK_WriteReg(PSP, 0x20000800)  returns 0x00 (0000ms, 0761ms total)
T461C 003:410 JLINK_WriteReg(CFBP, 0x00000000)  returns 0x00 (0000ms, 0761ms total)
T461C 003:410 JLINK_SetBPEx(Addr = 0x20000000, Type = 0xFFFFFFF2)  returns 0x0000000E (0000ms, 0761ms total)
T461C 003:410 JLINK_Go() (0002ms, 0763ms total)
T461C 003:412 JLINK_IsHalted()  returns FALSE (0001ms, 0764ms total)
T461C 003:427 JLINK_IsHalted() -- CPU_ReadMem(2 bytes @ 0x20000000)  returns TRUE (0004ms, 0767ms total)
T461C 003:431 JLINK_ReadReg(R15 (PC))  returns 0x20000000 (0000ms, 0763ms total)
T461C 003:431 JLINK_ClrBPEx(BPHandle = 0x0000000E)  returns 0x00 (0000ms, 0763ms total)
T461C 003:431 JLINK_ReadReg(R0)  returns 0x00000000 (0000ms, 0763ms total)
T461C 003:433 JLINK_WriteMem(0x20000180, 0x0400 Bytes, ...) - Data: 08 C0 04 2A FA D2 03 E0 11 F8 01 3B 00 F8 01 3B ... -- CPU_WriteMem(1024 bytes @ 0x20000180)  returns 0x400 (0006ms, 0769ms total)
T461C 003:439 JLINK_WriteReg(R0, 0x08000C00)  returns 0x00 (0000ms, 0769ms total)
T461C 003:439 JLINK_WriteReg(R1, 0x00000400)  returns 0x00 (0000ms, 0769ms total)
T461C 003:439 JLINK_WriteReg(R2, 0x20000180)  returns 0x00 (0000ms, 0769ms total)
T461C 003:439 JLINK_WriteReg(R3, 0x00000000)  returns 0x00 (0000ms, 0769ms total)
T461C 003:439 JLINK_WriteReg(R4, 0x00000000)  returns 0x00 (0000ms, 0769ms total)
T461C 003:439 JLINK_WriteReg(R5, 0x00000000)  returns 0x00 (0000ms, 0769ms total)
T461C 003:439 JLINK_WriteReg(R6, 0x00000000)  returns 0x00 (0000ms, 0769ms total)
T461C 003:440 JLINK_WriteReg(R7, 0x00000000)  returns 0x00 (0000ms, 0770ms total)
T461C 003:440 JLINK_WriteReg(R8, 0x00000000)  returns 0x00 (0000ms, 0770ms total)
T461C 003:440 JLINK_WriteReg(R9, 0x2000017C)  returns 0x00 (0000ms, 0770ms total)
T461C 003:440 JLINK_WriteReg(R10, 0x00000000)  returns 0x00 (0000ms, 0770ms total)
T461C 003:440 JLINK_WriteReg(R11, 0x00000000)  returns 0x00 (0000ms, 0770ms total)
T461C 003:440 JLINK_WriteReg(R12, 0x00000000)  returns 0x00 (0000ms, 0770ms total)
T461C 003:440 JLINK_WriteReg(R13 (SP), 0x20000800)  returns 0x00 (0000ms, 0770ms total)
T461C 003:440 JLINK_WriteReg(R14, 0x20000001)  returns 0x00 (0000ms, 0770ms total)
T461C 003:440 JLINK_WriteReg(R15 (PC), 0x20000108)  returns 0x00 (0000ms, 0770ms total)
T461C 003:440 JLINK_WriteReg(XPSR, 0x01000000)  returns 0x00 (0000ms, 0770ms total)
T461C 003:440 JLINK_WriteReg(MSP, 0x20000800)  returns 0x00 (0000ms, 0770ms total)
T461C 003:440 JLINK_WriteReg(PSP, 0x20000800)  returns 0x00 (0000ms, 0770ms total)
T461C 003:440 JLINK_WriteReg(CFBP, 0x00000000)  returns 0x00 (0000ms, 0770ms total)
T461C 003:440 JLINK_SetBPEx(Addr = 0x20000000, Type = 0xFFFFFFF2)  returns 0x0000000F (0000ms, 0770ms total)
T461C 003:440 JLINK_Go() (0002ms, 0772ms total)
T461C 003:442 JLINK_IsHalted()  returns FALSE (0001ms, 0773ms total)
T461C 003:550 JLINK_IsHalted() -- CPU_ReadMem(2 bytes @ 0x20000000)  returns TRUE (0004ms, 0776ms total)
T461C 003:554 JLINK_ReadReg(R15 (PC))  returns 0x20000000 (0000ms, 0772ms total)
T461C 003:554 JLINK_ClrBPEx(BPHandle = 0x0000000F)  returns 0x00 (0000ms, 0772ms total)
T461C 003:554 JLINK_ReadReg(R0)  returns 0x00000000 (0000ms, 0772ms total)
T461C 003:556 JLINK_WriteMem(0x20000180, 0x0400 Bytes, ...) - Data: BD E8 F0 4D A2 E7 00 00 06 4C 07 4D 06 E0 E0 68 ... -- CPU_WriteMem(1024 bytes @ 0x20000180)  returns 0x400 (0006ms, 0778ms total)
T461C 003:562 JLINK_WriteReg(R0, 0x08001000)  returns 0x00 (0000ms, 0778ms total)
T461C 003:562 JLINK_WriteReg(R1, 0x00000400)  returns 0x00 (0000ms, 0778ms total)
T461C 003:562 JLINK_WriteReg(R2, 0x20000180)  returns 0x00 (0000ms, 0778ms total)
T461C 003:563 JLINK_WriteReg(R3, 0x00000000)  returns 0x00 (0000ms, 0779ms total)
T461C 003:563 JLINK_WriteReg(R4, 0x00000000)  returns 0x00 (0000ms, 0779ms total)
T461C 003:563 JLINK_WriteReg(R5, 0x00000000)  returns 0x00 (0000ms, 0779ms total)
T461C 003:563 JLINK_WriteReg(R6, 0x00000000)  returns 0x00 (0000ms, 0779ms total)
T461C 003:563 JLINK_WriteReg(R7, 0x00000000)  returns 0x00 (0000ms, 0779ms total)
T461C 003:563 JLINK_WriteReg(R8, 0x00000000)  returns 0x00 (0000ms, 0779ms total)
T461C 003:563 JLINK_WriteReg(R9, 0x2000017C)  returns 0x00 (0000ms, 0779ms total)
T461C 003:563 JLINK_WriteReg(R10, 0x00000000)  returns 0x00 (0000ms, 0779ms total)
T461C 003:563 JLINK_WriteReg(R11, 0x00000000)  returns 0x00 (0000ms, 0779ms total)
T461C 003:563 JLINK_WriteReg(R12, 0x00000000)  returns 0x00 (0000ms, 0779ms total)
T461C 003:563 JLINK_WriteReg(R13 (SP), 0x20000800)  returns 0x00 (0000ms, 0779ms total)
T461C 003:563 JLINK_WriteReg(R14, 0x20000001)  returns 0x00 (0000ms, 0779ms total)
T461C 003:563 JLINK_WriteReg(R15 (PC), 0x20000108)  returns 0x00 (0000ms, 0779ms total)
T461C 003:563 JLINK_WriteReg(XPSR, 0x01000000)  returns 0x00 (0000ms, 0779ms total)
T461C 003:563 JLINK_WriteReg(MSP, 0x20000800)  returns 0x00 (0000ms, 0779ms total)
T461C 003:563 JLINK_WriteReg(PSP, 0x20000800)  returns 0x00 (0000ms, 0779ms total)
T461C 003:563 JLINK_WriteReg(CFBP, 0x00000000)  returns 0x00 (0000ms, 0779ms total)
T461C 003:563 JLINK_SetBPEx(Addr = 0x20000000, Type = 0xFFFFFFF2)  returns 0x00000010 (0000ms, 0779ms total)
T461C 003:563 JLINK_Go() (0002ms, 0781ms total)
T461C 003:565 JLINK_IsHalted()  returns FALSE (0001ms, 0782ms total)
T461C 003:647 JLINK_IsHalted() -- CPU_ReadMem(2 bytes @ 0x20000000)  returns TRUE (0004ms, 0785ms total)
T461C 003:651 JLINK_ReadReg(R15 (PC))  returns 0x20000000 (0000ms, 0781ms total)
T461C 003:651 JLINK_ClrBPEx(BPHandle = 0x00000010)  returns 0x00 (0000ms, 0781ms total)
T461C 003:651 JLINK_ReadReg(R0)  returns 0x00000000 (0000ms, 0781ms total)
T461C 003:652 JLINK_WriteMem(0x20000180, 0x0400 Bytes, ...) - Data: 1A 60 07 E0 04 4A 12 68 4F F4 80 53 83 40 9A 43 ... -- CPU_WriteMem(1024 bytes @ 0x20000180)  returns 0x400 (0007ms, 0788ms total)
T461C 003:659 JLINK_WriteReg(R0, 0x08001400)  returns 0x00 (0000ms, 0788ms total)
T461C 003:659 JLINK_WriteReg(R1, 0x00000400)  returns 0x00 (0000ms, 0788ms total)
T461C 003:659 JLINK_WriteReg(R2, 0x20000180)  returns 0x00 (0000ms, 0788ms total)
T461C 003:659 JLINK_WriteReg(R3, 0x00000000)  returns 0x00 (0000ms, 0788ms total)
T461C 003:659 JLINK_WriteReg(R4, 0x00000000)  returns 0x00 (0000ms, 0788ms total)
T461C 003:659 JLINK_WriteReg(R5, 0x00000000)  returns 0x00 (0000ms, 0788ms total)
T461C 003:659 JLINK_WriteReg(R6, 0x00000000)  returns 0x00 (0000ms, 0788ms total)
T461C 003:659 JLINK_WriteReg(R7, 0x00000000)  returns 0x00 (0000ms, 0788ms total)
T461C 003:659 JLINK_WriteReg(R8, 0x00000000)  returns 0x00 (0000ms, 0788ms total)
